
T12D0 000:375 SEGGER J-Link V4.80g Log File (0000ms, 0269ms total)
T12D0 000:375 DLL Compiled: Feb 13 2014 20:50:02 (0000ms, 0269ms total)
T12D0 000:375 Logging started @ 2017-04-17 03:00 (0000ms, 0269ms total)
T12D0 000:375 JLINK_SetWarnOutHandler(...) (0000ms, 0269ms total)
T12D0 000:375 JLINK_OpenEx(...)
Firmware: J-Link ARM V8 compiled Jan 31 2018 18:34:52
Hardware: V8.00
S/N: 20080643
Feature(s): RDI,FlashDL,FlashBP,JFlash,GDBFull  returns O.K. (0269ms, 0538ms total)
T12D0 000:644 JLINK_SetErrorOutHandler(...) (0000ms, 0538ms total)
T12D0 000:644 JLINK_ExecCommand("ProjectFile = "C:\Users\Administrator\Desktop\STM32_FFT\USER\JLinkSettings.ini"", ...)  returns 0x00 (0001ms, 0539ms total)
T12D0 000:649 JLINK_ExecCommand("Device = STM32F103RC", ...)Device "STM32F103RC" selected (256 KB flash, 48 KB RAM).  returns 0x00 (0006ms, 0545ms total)
T12D0 000:655 JLINK_ExecCommand("DisableConnectionTimeout", ...)  returns 0x01 (0000ms, 0545ms total)
T12D0 000:655 JLINK_GetHardwareVersion()  returns 0x13880 (0000ms, 0545ms total)
T12D0 000:655 JLINK_GetDLLVersion()  returns 48007 (0000ms, 0545ms total)
T12D0 000:655 JLINK_GetFirmwareString(...) (0000ms, 0545ms total)
T12D0 000:664 JLINK_GetDLLVersion()  returns 48007 (0000ms, 0545ms total)
T12D0 000:664 JLINK_GetCompileDateTime() (0000ms, 0545ms total)
T12D0 000:665 JLINK_GetFirmwareString(...) (0000ms, 0545ms total)
T12D0 000:666 JLINK_GetHardwareVersion()  returns 0x13880 (0000ms, 0545ms total)
T12D0 000:671 JLINK_TIF_Select(JLINKARM_TIF_SWD)  returns 0x00 (0004ms, 0549ms total)
T12D0 000:675 JLINK_SetSpeed(1000) (0001ms, 0550ms total)
T12D0 000:676 JLINK_GetId() >0x108 TIF>Found SWD-DP with ID 0x1BA01477 >0x0D TIF> >0x28 TIF> >0x0D TIF> >0x28 TIF> >0x0D TIF> >0x21 TIF> >0x0D TIF> >0x28 TIF> >0x0D TIF> >0x28 TIF> >0x0D TIF> >0x28 TIF> >0x0D TIF> >0x21 TIF> >0x0D TIF> >0x21 TIF> >0x0D TIF> >0x28 TIF> >0x0D TIF> >0x21 TIF> >0x0D TIF> >0x21 TIF> >0x108 TIF>Found SWD-DP with ID 0x1BA01477 >0x0D TIF> >0x21 TIF> >0x0D TIF> >0x28 TIF> >0x0D TIF> >0x28 TIF> >0x0D TIF> >0x21 TIF> >0x0D TIF> >0x28 TIF> >0x0D TIF> >0x21 TIF> >0x0D TIF> >0x21 TIF>
 >0x0D TIF> >0x21 TIF> >0x0D TIF> >0x28 TIF> >0x0D TIF> >0x21 TIF> >0x0D TIF> >0x28 TIF> >0x0D TIF> >0x28 TIF> >0x0D TIF> >0x21 TIF> >0x0D TIF> >0x28 TIF> >0x0D TIF> >0x28 TIF> >0x0D TIF> >0x28 TIF> >0x0D TIF> >0x21 TIF> >0x0D TIF> >0x21 TIF> >0x0D TIF> >0x28 TIF> >0x0D TIF> >0x21 TIF> >0x0D TIF> >0x21 TIF>Found Cortex-M3 r1p1, Little endian. >0x0D TIF> >0x28 TIF> -- CPU_WriteMem(4 bytes @ 0xE0002000) -- CPU_ReadMem(4 bytes @ 0xE000EDF0) -- CPU_ReadMem(4 bytes @ 0xE0002000)
FPUnit: 6 code (BP) slots and 2 literal slots -- CPU_ReadMem(4 bytes @ 0xE000EDFC) -- CPU_ReadMem(4 bytes @ 0xE0001000) -- CPU_WriteMem(4 bytes @ 0xE0001000) -- CPU_ReadMem(4 bytes @ 0xE00FF010)TPIU fitted. -- CPU_ReadMem(4 bytes @ 0xE00FF014) -- CPU_ReadMem(4 bytes @ 0xE00FF018) >0x0D TIF> >0x21 TIF>  returns 0x1BA01477 (0095ms, 0645ms total)
T12D0 000:771 JLINK_GetDeviceFamily()  returns 3 (0000ms, 0645ms total)
T12D0 000:774 JLINK_ReadMem (0xE00FFFF0, 0x0010 Bytes, ...) -- CPU is running -- CPU_ReadMem(16 bytes @ 0xE00FFFF0) -- Data:  0D 00 00 00 10 00 00 00 05 00 00 00 B1 00 00 00  returns 0x00 (0001ms, 0646ms total)
T12D0 000:775 JLINK_ReadMem (0xE00FFFD0, 0x0020 Bytes, ...) -- CPU is running -- CPU_ReadMem(32 bytes @ 0xE00FFFD0) -- Data:  00 00 00 00 00 00 00 00 00 00 00 00 00 00 00 00 ...  returns 0x00 (0002ms, 0648ms total)
T12D0 000:777 JLINK_ReadMem (0xE00FF000, 0x0018 Bytes, ...) -- CPU is running -- CPU_ReadMem(24 bytes @ 0xE00FF000) -- Data:  03 F0 F0 FF 03 20 F0 FF 03 30 F0 FF 03 10 F0 FF ...  returns 0x00 (0002ms, 0650ms total)
T12D0 000:779 JLINK_ReadMemU32(0xE000ED00, 0x0001 Items, ...) -- CPU is running -- CPU_ReadMem(4 bytes @ 0xE000ED00) -- Data:  31 C2 1F 41  returns 0x01 (0001ms, 0651ms total)
T12D0 000:780 JLINK_SetResetType(JLINKARM_RESET_TYPE_NORMAL)  returns JLINKARM_RESET_TYPE_NORMAL (0000ms, 0651ms total)
T12D0 000:780 JLINK_Reset() -- CPU_WriteMem(4 bytes @ 0xE0002000) -- CPU_ReadMem(4 bytes @ 0xE000EDFC) -- CPU_WriteMem(4 bytes @ 0xE000EDFC) -- CPU_ReadMem(4 bytes @ 0xE0001000) (0024ms, 0675ms total)
T12D0 000:804 JLINK_Halt()  returns 0x00 (0000ms, 0675ms total)
T12D0 000:804 JLINK_IsHalted()  returns TRUE (0000ms, 0675ms total)
T12D0 000:804 JLINK_ReadMemU32(0xE000EDF0, 0x0001 Items, ...) -- CPU_ReadMem(4 bytes @ 0xE000EDF0) -- Data:  03 00 03 00  returns 0x01 (0001ms, 0676ms total)
T12D0 000:805 JLINK_WriteU32(0xE000EDF0, 0xA05F0003) -- CPU_WriteMem(4 bytes @ 0xE000EDF0)  returns 0x00 (0001ms, 0677ms total)
T12D0 000:806 JLINK_WriteU32(0xE000EDFC, 0x01000000) -- CPU_WriteMem(4 bytes @ 0xE000EDFC)  returns 0x00 (0001ms, 0678ms total)
T12D0 000:815 JLINK_GetHWStatus(...)  returns 0x00 (0001ms, 0679ms total)
T12D0 000:822 JLINK_GetNumBPUnits(Type = 0xFFFFFF00)  returns 0x06 (0000ms, 0679ms total)
T12D0 000:822 JLINK_GetNumBPUnits(Type = 0xF0)  returns 0x2000 (0000ms, 0679ms total)
T12D0 000:822 JLINK_GetNumWPUnits()  returns 0x04 (0000ms, 0679ms total)
T12D0 000:827 JLINK_GetSpeed()  returns 0x3E8 (0000ms, 0679ms total)
T12D0 000:830 JLINK_ReadMemU32(0xE000E004, 0x0001 Items, ...) -- CPU_ReadMem(4 bytes @ 0xE000E004) -- Data:  01 00 00 00  returns 0x01 (0001ms, 0680ms total)
T12D0 000:831 JLINK_ReadMemU32(0xE000E004, 0x0001 Items, ...) -- CPU_ReadMem(4 bytes @ 0xE000E004) -- Data:  01 00 00 00  returns 0x01 (0001ms, 0681ms total)
T12D0 000:832 JLINK_WriteMem(0xE0001000, 0x001C Bytes, ...) -- Data:  01 00 00 00 00 00 00 00 00 00 00 00 00 00 00 00 ... -- CPU_WriteMem(28 bytes @ 0xE0001000)  returns 0x1C (0002ms, 0683ms total)
T12D0 000:834 JLINK_ReadMem (0xE0001000, 0x001C Bytes, ...) -- CPU_ReadMem(28 bytes @ 0xE0001000) -- Data:  01 00 00 40 00 00 00 00 00 00 00 00 00 00 00 00 ...  returns 0x00 (0002ms, 0685ms total)
T12D0 000:836 JLINK_Halt()  returns 0x00 (0000ms, 0685ms total)
T12D0 000:836 JLINK_IsHalted()  returns TRUE (0000ms, 0685ms total)
T12D0 000:840 JLINK_WriteMem(0x20000000, 0x0164 Bytes, ...) -- Data:  00 BE 0A E0 0D 78 2D 06 68 40 08 24 40 00 00 D3 ... -- CPU_WriteMem(356 bytes @ 0x20000000)  returns 0x164 (0007ms, 0692ms total)
T12D0 000:847 JLINK_WriteReg(R0, 0x08000000)  returns 0x00 (0000ms, 0692ms total)
T12D0 000:847 JLINK_WriteReg(R1, 0x007A1200)  returns 0x00 (0000ms, 0692ms total)
T12D0 000:847 JLINK_WriteReg(R2, 0x00000001)  returns 0x00 (0000ms, 0692ms total)
T12D0 000:847 JLINK_WriteReg(R3, 0x00000000)  returns 0x00 (0000ms, 0692ms total)
T12D0 000:847 JLINK_WriteReg(R4, 0x00000000)  returns 0x00 (0000ms, 0692ms total)
T12D0 000:847 JLINK_WriteReg(R5, 0x00000000)  returns 0x00 (0000ms, 0692ms total)
T12D0 000:847 JLINK_WriteReg(R6, 0x00000000)  returns 0x00 (0000ms, 0692ms total)
T12D0 000:847 JLINK_WriteReg(R7, 0x00000000)  returns 0x00 (0000ms, 0692ms total)
T12D0 000:847 JLINK_WriteReg(R8, 0x00000000)  returns 0x00 (0000ms, 0692ms total)
T12D0 000:847 JLINK_WriteReg(R9, 0x20000160)  returns 0x00 (0000ms, 0692ms total)
T12D0 000:847 JLINK_WriteReg(R10, 0x00000000)  returns 0x00 (0000ms, 0692ms total)
T12D0 000:847 JLINK_WriteReg(R11, 0x00000000)  returns 0x00 (0000ms, 0692ms total)
T12D0 000:847 JLINK_WriteReg(R12, 0x00000000)  returns 0x00 (0000ms, 0692ms total)
T12D0 000:847 JLINK_WriteReg(R13 (SP), 0x20001000)  returns 0x00 (0000ms, 0692ms total)
T12D0 000:847 JLINK_WriteReg(R14, 0x20000001)  returns 0x00 (0000ms, 0692ms total)
T12D0 000:847 JLINK_WriteReg(R15 (PC), 0x20000038)  returns 0x00 (0000ms, 0692ms total)
T12D0 000:847 JLINK_WriteReg(XPSR, 0x01000000)  returns 0x00 (0000ms, 0692ms total)
T12D0 000:847 JLINK_WriteReg(MSP, 0x20001000)  returns 0x00 (0000ms, 0692ms total)
T12D0 000:847 JLINK_WriteReg(PSP, 0x20001000)  returns 0x00 (0000ms, 0692ms total)
T12D0 000:847 JLINK_WriteReg(CFBP, 0x00000000)  returns 0x00 (0000ms, 0692ms total)
T12D0 000:847 JLINK_SetBPEx(Addr = 0x20000000, Type = 0xFFFFFFF2) -- CPU_ReadMem(2 bytes @ 0x20000000)  returns 0x00000001 (0002ms, 0694ms total)
T12D0 000:849 JLINK_Go() -- CPU_WriteMem(2 bytes @ 0x20000000) -- CPU_WriteMem(4 bytes @ 0xE0002008) -- CPU_WriteMem(4 bytes @ 0xE000200C) -- CPU_WriteMem(4 bytes @ 0xE0002010) -- CPU_WriteMem(4 bytes @ 0xE0002014) -- CPU_WriteMem(4 bytes @ 0xE0002018) -- CPU_WriteMem(4 bytes @ 0xE000201C) -- CPU_WriteMem(4 bytes @ 0xE0001004) (0011ms, 0705ms total)
T12D0 000:860 JLINK_IsHalted() -- CPU_ReadMem(2 bytes @ 0x20000000)  returns TRUE (0010ms, 0715ms total)
T12D0 000:870 JLINK_ReadReg(R15 (PC))  returns 0x20000000 (0000ms, 0705ms total)
T12D0 000:870 JLINK_ClrBPEx(BPHandle = 0x00000001)  returns 0x00 (0000ms, 0705ms total)
T12D0 000:870 JLINK_ReadReg(R0)  returns 0x00000000 (0000ms, 0705ms total)
T12D0 000:871 JLINK_WriteReg(R0, 0x08000000)  returns 0x00 (0000ms, 0705ms total)
T12D0 000:871 JLINK_WriteReg(R1, 0x007A1200)  returns 0x00 (0000ms, 0705ms total)
T12D0 000:871 JLINK_WriteReg(R2, 0x00000001)  returns 0x00 (0000ms, 0705ms total)
T12D0 000:871 JLINK_WriteReg(R3, 0x00000000)  returns 0x00 (0000ms, 0705ms total)
T12D0 000:871 JLINK_WriteReg(R4, 0x00000000)  returns 0x00 (0000ms, 0705ms total)
T12D0 000:871 JLINK_WriteReg(R5, 0x00000000)  returns 0x00 (0000ms, 0705ms total)
T12D0 000:871 JLINK_WriteReg(R6, 0x00000000)  returns 0x00 (0000ms, 0705ms total)
T12D0 000:871 JLINK_WriteReg(R7, 0x00000000)  returns 0x00 (0000ms, 0705ms total)
T12D0 000:871 JLINK_WriteReg(R8, 0x00000000)  returns 0x00 (0000ms, 0705ms total)
T12D0 000:871 JLINK_WriteReg(R9, 0x20000160)  returns 0x00 (0000ms, 0705ms total)
T12D0 000:871 JLINK_WriteReg(R10, 0x00000000)  returns 0x00 (0000ms, 0705ms total)
T12D0 000:871 JLINK_WriteReg(R11, 0x00000000)  returns 0x00 (0000ms, 0705ms total)
T12D0 000:871 JLINK_WriteReg(R12, 0x00000000)  returns 0x00 (0000ms, 0705ms total)
T12D0 000:871 JLINK_WriteReg(R13 (SP), 0x20001000)  returns 0x00 (0000ms, 0705ms total)
T12D0 000:871 JLINK_WriteReg(R14, 0x20000001)  returns 0x00 (0000ms, 0705ms total)
T12D0 000:871 JLINK_WriteReg(R15 (PC), 0x2000007C)  returns 0x00 (0000ms, 0705ms total)
T12D0 000:871 JLINK_WriteReg(XPSR, 0x01000000)  returns 0x00 (0000ms, 0705ms total)
T12D0 000:871 JLINK_WriteReg(MSP, 0x20001000)  returns 0x00 (0000ms, 0705ms total)
T12D0 000:871 JLINK_WriteReg(PSP, 0x20001000)  returns 0x00 (0000ms, 0705ms total)
T12D0 000:871 JLINK_WriteReg(CFBP, 0x00000000)  returns 0x00 (0000ms, 0705ms total)
T12D0 000:872 JLINK_SetBPEx(Addr = 0x20000000, Type = 0xFFFFFFF2)  returns 0x00000002 (0000ms, 0705ms total)
T12D0 000:872 JLINK_Go() (0002ms, 0707ms total)
T12D0 000:874 JLINK_IsHalted()  returns FALSE (0001ms, 0708ms total)
T12D0 000:975 JLINK_IsHalted() -- CPU_ReadMem(2 bytes @ 0x20000000)  returns TRUE (0010ms, 0717ms total)
T12D0 000:985 JLINK_ReadReg(R15 (PC))  returns 0x20000000 (0000ms, 0707ms total)
T12D0 000:985 JLINK_ClrBPEx(BPHandle = 0x00000002)  returns 0x00 (0000ms, 0707ms total)
T12D0 000:985 JLINK_ReadReg(R0)  returns 0x00000000 (0000ms, 0707ms total)
T12D0 001:036 JLINK_WriteReg(R0, 0x00000001)  returns 0x00 (0001ms, 0708ms total)
T12D0 001:037 JLINK_WriteReg(R1, 0x007A1200)  returns 0x00 (0001ms, 0709ms total)
T12D0 001:038 JLINK_WriteReg(R2, 0x00000001)  returns 0x00 (0000ms, 0709ms total)
T12D0 001:038 JLINK_WriteReg(R3, 0x00000000)  returns 0x00 (0000ms, 0709ms total)
T12D0 001:038 JLINK_WriteReg(R4, 0x00000000)  returns 0x00 (0000ms, 0709ms total)
T12D0 001:038 JLINK_WriteReg(R5, 0x00000000)  returns 0x00 (0000ms, 0709ms total)
T12D0 001:038 JLINK_WriteReg(R6, 0x00000000)  returns 0x00 (0000ms, 0709ms total)
T12D0 001:038 JLINK_WriteReg(R7, 0x00000000)  returns 0x00 (0000ms, 0709ms total)
T12D0 001:038 JLINK_WriteReg(R8, 0x00000000)  returns 0x00 (0000ms, 0709ms total)
T12D0 001:038 JLINK_WriteReg(R9, 0x20000160)  returns 0x00 (0000ms, 0709ms total)
T12D0 001:038 JLINK_WriteReg(R10, 0x00000000)  returns 0x00 (0000ms, 0709ms total)
T12D0 001:038 JLINK_WriteReg(R11, 0x00000000)  returns 0x00 (0000ms, 0709ms total)
T12D0 001:038 JLINK_WriteReg(R12, 0x00000000)  returns 0x00 (0000ms, 0709ms total)
T12D0 001:038 JLINK_WriteReg(R13 (SP), 0x20001000)  returns 0x00 (0000ms, 0709ms total)
T12D0 001:038 JLINK_WriteReg(R14, 0x20000001)  returns 0x00 (0000ms, 0709ms total)
T12D0 001:038 JLINK_WriteReg(R15 (PC), 0x2000006A)  returns 0x00 (0000ms, 0709ms total)
T12D0 001:038 JLINK_WriteReg(XPSR, 0x01000000)  returns 0x00 (0000ms, 0709ms total)
T12D0 001:038 JLINK_WriteReg(MSP, 0x20001000)  returns 0x00 (0000ms, 0709ms total)
T12D0 001:038 JLINK_WriteReg(PSP, 0x20001000)  returns 0x00 (0000ms, 0709ms total)
T12D0 001:038 JLINK_WriteReg(CFBP, 0x00000000)  returns 0x00 (0000ms, 0709ms total)
T12D0 001:038 JLINK_SetBPEx(Addr = 0x20000000, Type = 0xFFFFFFF2)  returns 0x00000003 (0000ms, 0709ms total)
T12D0 001:038 JLINK_Go() (0003ms, 0712ms total)
T12D0 001:041 JLINK_IsHalted() -- CPU_ReadMem(2 bytes @ 0x20000000)  returns TRUE (0009ms, 0721ms total)
T12D0 001:050 JLINK_ReadReg(R15 (PC))  returns 0x20000000 (0000ms, 0712ms total)
T12D0 001:051 JLINK_ClrBPEx(BPHandle = 0x00000003)  returns 0x00 (0000ms, 0713ms total)
T12D0 001:051 JLINK_ReadReg(R0)  returns 0x00000000 (0000ms, 0713ms total)
T12D0 001:058 JLINK_WriteMem(0x20000000, 0x0164 Bytes, ...) -- Data:  00 BE 0A E0 0D 78 2D 06 68 40 08 24 40 00 00 D3 ... -- CPU_WriteMem(356 bytes @ 0x20000000)  returns 0x164 (0007ms, 0720ms total)
T12D0 001:065 JLINK_WriteReg(R0, 0x08000000)  returns 0x00 (0000ms, 0720ms total)
T12D0 001:065 JLINK_WriteReg(R1, 0x007A1200)  returns 0x00 (0000ms, 0720ms total)
T12D0 001:065 JLINK_WriteReg(R2, 0x00000002)  returns 0x00 (0000ms, 0720ms total)
T12D0 001:065 JLINK_WriteReg(R3, 0x00000000)  returns 0x00 (0000ms, 0720ms total)
T12D0 001:065 JLINK_WriteReg(R4, 0x00000000)  returns 0x00 (0000ms, 0720ms total)
T12D0 001:065 JLINK_WriteReg(R5, 0x00000000)  returns 0x00 (0000ms, 0720ms total)
T12D0 001:065 JLINK_WriteReg(R6, 0x00000000)  returns 0x00 (0000ms, 0720ms total)
T12D0 001:065 JLINK_WriteReg(R7, 0x00000000)  returns 0x00 (0000ms, 0720ms total)
T12D0 001:065 JLINK_WriteReg(R8, 0x00000000)  returns 0x00 (0000ms, 0720ms total)
T12D0 001:065 JLINK_WriteReg(R9, 0x20000160)  returns 0x00 (0000ms, 0720ms total)
T12D0 001:065 JLINK_WriteReg(R10, 0x00000000)  returns 0x00 (0000ms, 0720ms total)
T12D0 001:065 JLINK_WriteReg(R11, 0x00000000)  returns 0x00 (0000ms, 0720ms total)
T12D0 001:065 JLINK_WriteReg(R12, 0x00000000)  returns 0x00 (0000ms, 0720ms total)
T12D0 001:065 JLINK_WriteReg(R13 (SP), 0x20001000)  returns 0x00 (0000ms, 0720ms total)
T12D0 001:065 JLINK_WriteReg(R14, 0x20000001)  returns 0x00 (0000ms, 0720ms total)
T12D0 001:065 JLINK_WriteReg(R15 (PC), 0x20000038)  returns 0x00 (0000ms, 0720ms total)
T12D0 001:065 JLINK_WriteReg(XPSR, 0x01000000)  returns 0x00 (0000ms, 0720ms total)
T12D0 001:065 JLINK_WriteReg(MSP, 0x20001000)  returns 0x00 (0001ms, 0721ms total)
T12D0 001:066 JLINK_WriteReg(PSP, 0x20001000)  returns 0x00 (0000ms, 0721ms total)
T12D0 001:066 JLINK_WriteReg(CFBP, 0x00000000)  returns 0x00 (0000ms, 0721ms total)
T12D0 001:066 JLINK_SetBPEx(Addr = 0x20000000, Type = 0xFFFFFFF2) -- CPU_ReadMem(2 bytes @ 0x20000000)  returns 0x00000004 (0001ms, 0722ms total)
T12D0 001:067 JLINK_Go() -- CPU_WriteMem(2 bytes @ 0x20000000) (0004ms, 0726ms total)
T12D0 001:071 JLINK_IsHalted() -- CPU_ReadMem(2 bytes @ 0x20000000)  returns TRUE (0010ms, 0736ms total)
T12D0 001:081 JLINK_ReadReg(R15 (PC))  returns 0x20000000 (0000ms, 0726ms total)
T12D0 001:081 JLINK_ClrBPEx(BPHandle = 0x00000004)  returns 0x00 (0000ms, 0726ms total)
T12D0 001:081 JLINK_ReadReg(R0)  returns 0x00000000 (0000ms, 0726ms total)
T12D0 001:082 JLINK_WriteMem(0x20000164, 0x0400 Bytes, ...) -- Data:  70 11 00 20 D9 2D 00 08 ED 04 00 08 EF 04 00 08 ... -- CPU_WriteMem(1024 bytes @ 0x20000164)  returns 0x400 (0017ms, 0743ms total)
T12D0 001:099 JLINK_WriteReg(R0, 0x08000000)  returns 0x00 (0000ms, 0743ms total)
T12D0 001:099 JLINK_WriteReg(R1, 0x00000400)  returns 0x00 (0000ms, 0743ms total)
T12D0 001:099 JLINK_WriteReg(R2, 0x20000164)  returns 0x00 (0000ms, 0743ms total)
T12D0 001:099 JLINK_WriteReg(R3, 0x00000000)  returns 0x00 (0000ms, 0743ms total)
T12D0 001:099 JLINK_WriteReg(R4, 0x00000000)  returns 0x00 (0000ms, 0743ms total)
T12D0 001:099 JLINK_WriteReg(R5, 0x00000000)  returns 0x00 (0000ms, 0743ms total)
T12D0 001:099 JLINK_WriteReg(R6, 0x00000000)  returns 0x00 (0001ms, 0744ms total)
T12D0 001:100 JLINK_WriteReg(R7, 0x00000000)  returns 0x00 (0000ms, 0744ms total)
T12D0 001:100 JLINK_WriteReg(R8, 0x00000000)  returns 0x00 (0000ms, 0744ms total)
T12D0 001:100 JLINK_WriteReg(R9, 0x20000160)  returns 0x00 (0000ms, 0744ms total)
T12D0 001:100 JLINK_WriteReg(R10, 0x00000000)  returns 0x00 (0000ms, 0744ms total)
T12D0 001:100 JLINK_WriteReg(R11, 0x00000000)  returns 0x00 (0000ms, 0744ms total)
T12D0 001:100 JLINK_WriteReg(R12, 0x00000000)  returns 0x00 (0000ms, 0744ms total)
T12D0 001:100 JLINK_WriteReg(R13 (SP), 0x20001000)  returns 0x00 (0000ms, 0744ms total)
T12D0 001:100 JLINK_WriteReg(R14, 0x20000001)  returns 0x00 (0000ms, 0744ms total)
T12D0 001:100 JLINK_WriteReg(R15 (PC), 0x200000F4)  returns 0x00 (0000ms, 0744ms total)
T12D0 001:100 JLINK_WriteReg(XPSR, 0x01000000)  returns 0x00 (0000ms, 0744ms total)
T12D0 001:100 JLINK_WriteReg(MSP, 0x20001000)  returns 0x00 (0000ms, 0744ms total)
T12D0 001:100 JLINK_WriteReg(PSP, 0x20001000)  returns 0x00 (0000ms, 0744ms total)
T12D0 001:100 JLINK_WriteReg(CFBP, 0x00000000)  returns 0x00 (0000ms, 0744ms total)
T12D0 001:100 JLINK_SetBPEx(Addr = 0x20000000, Type = 0xFFFFFFF2)  returns 0x00000005 (0000ms, 0744ms total)
T12D0 001:100 JLINK_Go() (0003ms, 0747ms total)
T12D0 001:103 JLINK_IsHalted()  returns FALSE (0001ms, 0748ms total)
T12D0 001:158 JLINK_IsHalted() -- CPU_ReadMem(2 bytes @ 0x20000000)  returns TRUE (0009ms, 0756ms total)
T12D0 001:167 JLINK_ReadReg(R15 (PC))  returns 0x20000000 (0000ms, 0747ms total)
T12D0 001:167 JLINK_ClrBPEx(BPHandle = 0x00000005)  returns 0x00 (0000ms, 0747ms total)
T12D0 001:167 JLINK_ReadReg(R0)  returns 0x00000000 (0000ms, 0747ms total)
T12D0 001:168 JLINK_WriteMem(0x20000164, 0x0400 Bytes, ...) -- Data:  57 F8 26 60 C6 F5 8C 76 B3 B2 01 26 06 EB 44 06 ... -- CPU_WriteMem(1024 bytes @ 0x20000164)  returns 0x400 (0017ms, 0764ms total)
T12D0 001:185 JLINK_WriteReg(R0, 0x08000400)  returns 0x00 (0000ms, 0764ms total)
T12D0 001:185 JLINK_WriteReg(R1, 0x00000400)  returns 0x00 (0000ms, 0764ms total)
T12D0 001:185 JLINK_WriteReg(R2, 0x20000164)  returns 0x00 (0000ms, 0764ms total)
T12D0 001:185 JLINK_WriteReg(R3, 0x00000000)  returns 0x00 (0000ms, 0764ms total)
T12D0 001:185 JLINK_WriteReg(R4, 0x00000000)  returns 0x00 (0000ms, 0764ms total)
T12D0 001:185 JLINK_WriteReg(R5, 0x00000000)  returns 0x00 (0000ms, 0764ms total)
T12D0 001:185 JLINK_WriteReg(R6, 0x00000000)  returns 0x00 (0000ms, 0764ms total)
T12D0 001:185 JLINK_WriteReg(R7, 0x00000000)  returns 0x00 (0000ms, 0764ms total)
T12D0 001:185 JLINK_WriteReg(R8, 0x00000000)  returns 0x00 (0000ms, 0764ms total)
T12D0 001:185 JLINK_WriteReg(R9, 0x20000160)  returns 0x00 (0000ms, 0764ms total)
T12D0 001:185 JLINK_WriteReg(R10, 0x00000000)  returns 0x00 (0000ms, 0764ms total)
T12D0 001:185 JLINK_WriteReg(R11, 0x00000000)  returns 0x00 (0000ms, 0764ms total)
T12D0 001:185 JLINK_WriteReg(R12, 0x00000000)  returns 0x00 (0000ms, 0764ms total)
T12D0 001:185 JLINK_WriteReg(R13 (SP), 0x20001000)  returns 0x00 (0000ms, 0764ms total)
T12D0 001:185 JLINK_WriteReg(R14, 0x20000001)  returns 0x00 (0000ms, 0764ms total)
T12D0 001:185 JLINK_WriteReg(R15 (PC), 0x200000F4)  returns 0x00 (0000ms, 0764ms total)
T12D0 001:185 JLINK_WriteReg(XPSR, 0x01000000)  returns 0x00 (0000ms, 0764ms total)
T12D0 001:185 JLINK_WriteReg(MSP, 0x20001000)  returns 0x00 (0000ms, 0764ms total)
T12D0 001:185 JLINK_WriteReg(PSP, 0x20001000)  returns 0x00 (0000ms, 0764ms total)
T12D0 001:185 JLINK_WriteReg(CFBP, 0x00000000)  returns 0x00 (0000ms, 0764ms total)
T12D0 001:185 JLINK_SetBPEx(Addr = 0x20000000, Type = 0xFFFFFFF2)  returns 0x00000006 (0000ms, 0764ms total)
T12D0 001:185 JLINK_Go() (0003ms, 0767ms total)
T12D0 001:188 JLINK_IsHalted()  returns FALSE (0001ms, 0768ms total)
T12D0 001:190 JLINK_IsHalted()  returns FALSE (0000ms, 0767ms total)
T12D0 001:193 JLINK_IsHalted()  returns FALSE (0001ms, 0768ms total)
T12D0 001:195 JLINK_IsHalted()  returns FALSE (0001ms, 0768ms total)
T12D0 001:197 JLINK_IsHalted()  returns FALSE (0001ms, 0768ms total)
T12D0 001:199 JLINK_IsHalted()  returns FALSE (0001ms, 0768ms total)
T12D0 001:201 JLINK_IsHalted()  returns FALSE (0001ms, 0768ms total)
T12D0 001:203 JLINK_IsHalted()  returns FALSE (0001ms, 0768ms total)
T12D0 001:205 JLINK_IsHalted()  returns FALSE (0001ms, 0768ms total)
T12D0 001:207 JLINK_IsHalted()  returns FALSE (0001ms, 0768ms total)
T12D0 001:209 JLINK_IsHalted()  returns FALSE (0001ms, 0768ms total)
T12D0 001:211 JLINK_IsHalted()  returns FALSE (0001ms, 0768ms total)
T12D0 001:213 JLINK_IsHalted()  returns FALSE (0001ms, 0768ms total)
T12D0 001:215 JLINK_IsHalted()  returns FALSE (0001ms, 0768ms total)
T12D0 001:217 JLINK_IsHalted()  returns FALSE (0001ms, 0768ms total)
T12D0 001:228 JLINK_IsHalted() -- CPU_ReadMem(2 bytes @ 0x20000000)  returns TRUE (0010ms, 0777ms total)
T12D0 001:238 JLINK_ReadReg(R15 (PC))  returns 0x20000000 (0000ms, 0767ms total)
T12D0 001:238 JLINK_ClrBPEx(BPHandle = 0x00000006)  returns 0x00 (0000ms, 0767ms total)
T12D0 001:238 JLINK_ReadReg(R0)  returns 0x00000000 (0000ms, 0767ms total)
T12D0 001:239 JLINK_WriteMem(0x20000164, 0x0400 Bytes, ...) -- Data:  A0 F1 01 02 D0 B2 FA D1 70 47 30 B5 04 46 0D 46 ... -- CPU_WriteMem(1024 bytes @ 0x20000164)  returns 0x400 (0018ms, 0785ms total)
T12D0 001:257 JLINK_WriteReg(R0, 0x08000800)  returns 0x00 (0000ms, 0785ms total)
T12D0 001:257 JLINK_WriteReg(R1, 0x00000400)  returns 0x00 (0000ms, 0785ms total)
T12D0 001:257 JLINK_WriteReg(R2, 0x20000164)  returns 0x00 (0000ms, 0785ms total)
T12D0 001:257 JLINK_WriteReg(R3, 0x00000000)  returns 0x00 (0000ms, 0785ms total)
T12D0 001:257 JLINK_WriteReg(R4, 0x00000000)  returns 0x00 (0000ms, 0785ms total)
T12D0 001:257 JLINK_WriteReg(R5, 0x00000000)  returns 0x00 (0000ms, 0785ms total)
T12D0 001:257 JLINK_WriteReg(R6, 0x00000000)  returns 0x00 (0000ms, 0785ms total)
T12D0 001:257 JLINK_WriteReg(R7, 0x00000000)  returns 0x00 (0000ms, 0785ms total)
T12D0 001:257 JLINK_WriteReg(R8, 0x00000000)  returns 0x00 (0000ms, 0785ms total)
T12D0 001:257 JLINK_WriteReg(R9, 0x20000160)  returns 0x00 (0000ms, 0785ms total)
T12D0 001:257 JLINK_WriteReg(R10, 0x00000000)  returns 0x00 (0000ms, 0785ms total)
T12D0 001:257 JLINK_WriteReg(R11, 0x00000000)  returns 0x00 (0000ms, 0785ms total)
T12D0 001:257 JLINK_WriteReg(R12, 0x00000000)  returns 0x00 (0000ms, 0785ms total)
T12D0 001:257 JLINK_WriteReg(R13 (SP), 0x20001000)  returns 0x00 (0000ms, 0785ms total)
T12D0 001:257 JLINK_WriteReg(R14, 0x20000001)  returns 0x00 (0000ms, 0785ms total)
T12D0 001:257 JLINK_WriteReg(R15 (PC), 0x200000F4)  returns 0x00 (0000ms, 0785ms total)
T12D0 001:257 JLINK_WriteReg(XPSR, 0x01000000)  returns 0x00 (0000ms, 0785ms total)
T12D0 001:257 JLINK_WriteReg(MSP, 0x20001000)  returns 0x00 (0000ms, 0785ms total)
T12D0 001:257 JLINK_WriteReg(PSP, 0x20001000)  returns 0x00 (0000ms, 0785ms total)
T12D0 001:257 JLINK_WriteReg(CFBP, 0x00000000)  returns 0x00 (0000ms, 0785ms total)
T12D0 001:257 JLINK_SetBPEx(Addr = 0x20000000, Type = 0xFFFFFFF2)  returns 0x00000007 (0000ms, 0785ms total)
T12D0 001:257 JLINK_Go() (0003ms, 0788ms total)
T12D0 001:260 JLINK_IsHalted()  returns FALSE (0001ms, 0789ms total)
T12D0 001:309 JLINK_IsHalted() -- CPU_ReadMem(2 bytes @ 0x20000000)  returns TRUE (0010ms, 0798ms total)
T12D0 001:319 JLINK_ReadReg(R15 (PC))  returns 0x20000000 (0000ms, 0788ms total)
T12D0 001:319 JLINK_ClrBPEx(BPHandle = 0x00000007)  returns 0x00 (0000ms, 0788ms total)
T12D0 001:319 JLINK_ReadReg(R0)  returns 0x00000000 (0000ms, 0788ms total)
T12D0 001:320 JLINK_WriteMem(0x20000164, 0x0400 Bytes, ...) -- Data:  88 42 0B D0 B2 48 80 88 45 F2 10 31 88 42 05 D0 ... -- CPU_WriteMem(1024 bytes @ 0x20000164)  returns 0x400 (0017ms, 0805ms total)
T12D0 001:337 JLINK_WriteReg(R0, 0x08000C00)  returns 0x00 (0000ms, 0805ms total)
T12D0 001:337 JLINK_WriteReg(R1, 0x00000400)  returns 0x00 (0000ms, 0805ms total)
T12D0 001:337 JLINK_WriteReg(R2, 0x20000164)  returns 0x00 (0000ms, 0805ms total)
T12D0 001:337 JLINK_WriteReg(R3, 0x00000000)  returns 0x00 (0000ms, 0805ms total)
T12D0 001:337 JLINK_WriteReg(R4, 0x00000000)  returns 0x00 (0000ms, 0805ms total)
T12D0 001:337 JLINK_WriteReg(R5, 0x00000000)  returns 0x00 (0000ms, 0805ms total)
T12D0 001:337 JLINK_WriteReg(R6, 0x00000000)  returns 0x00 (0000ms, 0805ms total)
T12D0 001:337 JLINK_WriteReg(R7, 0x00000000)  returns 0x00 (0000ms, 0805ms total)
T12D0 001:337 JLINK_WriteReg(R8, 0x00000000)  returns 0x00 (0000ms, 0805ms total)
T12D0 001:337 JLINK_WriteReg(R9, 0x20000160)  returns 0x00 (0000ms, 0805ms total)
T12D0 001:337 JLINK_WriteReg(R10, 0x00000000)  returns 0x00 (0000ms, 0805ms total)
T12D0 001:337 JLINK_WriteReg(R11, 0x00000000)  returns 0x00 (0000ms, 0805ms total)
T12D0 001:337 JLINK_WriteReg(R12, 0x00000000)  returns 0x00 (0000ms, 0805ms total)
T12D0 001:337 JLINK_WriteReg(R13 (SP), 0x20001000)  returns 0x00 (0000ms, 0805ms total)
T12D0 001:337 JLINK_WriteReg(R14, 0x20000001)  returns 0x00 (0000ms, 0805ms total)
T12D0 001:337 JLINK_WriteReg(R15 (PC), 0x200000F4)  returns 0x00 (0000ms, 0805ms total)
T12D0 001:337 JLINK_WriteReg(XPSR, 0x01000000)  returns 0x00 (0000ms, 0805ms total)
T12D0 001:337 JLINK_WriteReg(MSP, 0x20001000)  returns 0x00 (0000ms, 0805ms total)
T12D0 001:337 JLINK_WriteReg(PSP, 0x20001000)  returns 0x00 (0000ms, 0805ms total)
T12D0 001:337 JLINK_WriteReg(CFBP, 0x00000000)  returns 0x00 (0000ms, 0805ms total)
T12D0 001:337 JLINK_SetBPEx(Addr = 0x20000000, Type = 0xFFFFFFF2)  returns 0x00000008 (0000ms, 0805ms total)
T12D0 001:337 JLINK_Go() (0003ms, 0808ms total)
T12D0 001:340 JLINK_IsHalted()  returns FALSE (0001ms, 0809ms total)
T12D0 001:342 JLINK_IsHalted()  returns FALSE (0001ms, 0809ms total)
T12D0 001:344 JLINK_IsHalted()  returns FALSE (0001ms, 0809ms total)
T12D0 001:346 JLINK_IsHalted()  returns FALSE (0001ms, 0809ms total)
T12D0 001:348 JLINK_IsHalted()  returns FALSE (0001ms, 0809ms total)
T12D0 001:350 JLINK_IsHalted()  returns FALSE (0001ms, 0809ms total)
T12D0 001:352 JLINK_IsHalted()  returns FALSE (0001ms, 0809ms total)
T12D0 001:354 JLINK_IsHalted()  returns FALSE (0001ms, 0809ms total)
T12D0 001:356 JLINK_IsHalted()  returns FALSE (0001ms, 0809ms total)
T12D0 001:394 JLINK_IsHalted() -- CPU_ReadMem(2 bytes @ 0x20000000)  returns TRUE (0009ms, 0817ms total)
T12D0 001:403 JLINK_ReadReg(R15 (PC))  returns 0x20000000 (0000ms, 0808ms total)
T12D0 001:403 JLINK_ClrBPEx(BPHandle = 0x00000008)  returns 0x00 (0000ms, 0808ms total)
T12D0 001:404 JLINK_ReadReg(R0)  returns 0x00000000 (0000ms, 0809ms total)
T12D0 001:404 JLINK_WriteMem(0x20000164, 0x0400 Bytes, ...) -- Data:  08 80 08 46 46 80 B2 48 80 88 45 F2 10 51 88 42 ... -- CPU_WriteMem(1024 bytes @ 0x20000164)  returns 0x400 (0018ms, 0827ms total)
T12D0 001:422 JLINK_WriteReg(R0, 0x08001000)  returns 0x00 (0000ms, 0827ms total)
T12D0 001:422 JLINK_WriteReg(R1, 0x00000400)  returns 0x00 (0000ms, 0827ms total)
T12D0 001:422 JLINK_WriteReg(R2, 0x20000164)  returns 0x00 (0000ms, 0827ms total)
T12D0 001:422 JLINK_WriteReg(R3, 0x00000000)  returns 0x00 (0000ms, 0827ms total)
T12D0 001:422 JLINK_WriteReg(R4, 0x00000000)  returns 0x00 (0000ms, 0827ms total)
T12D0 001:422 JLINK_WriteReg(R5, 0x00000000)  returns 0x00 (0000ms, 0827ms total)
T12D0 001:422 JLINK_WriteReg(R6, 0x00000000)  returns 0x00 (0000ms, 0827ms total)
T12D0 001:422 JLINK_WriteReg(R7, 0x00000000)  returns 0x00 (0000ms, 0827ms total)
T12D0 001:422 JLINK_WriteReg(R8, 0x00000000)  returns 0x00 (0000ms, 0827ms total)
T12D0 001:422 JLINK_WriteReg(R9, 0x20000160)  returns 0x00 (0000ms, 0827ms total)
T12D0 001:422 JLINK_WriteReg(R10, 0x00000000)  returns 0x00 (0000ms, 0827ms total)
T12D0 001:422 JLINK_WriteReg(R11, 0x00000000)  returns 0x00 (0000ms, 0827ms total)
T12D0 001:422 JLINK_WriteReg(R12, 0x00000000)  returns 0x00 (0000ms, 0827ms total)
T12D0 001:422 JLINK_WriteReg(R13 (SP), 0x20001000)  returns 0x00 (0000ms, 0827ms total)
T12D0 001:422 JLINK_WriteReg(R14, 0x20000001)  returns 0x00 (0000ms, 0827ms total)
T12D0 001:422 JLINK_WriteReg(R15 (PC), 0x200000F4)  returns 0x00 (0000ms, 0827ms total)
T12D0 001:422 JLINK_WriteReg(XPSR, 0x01000000)  returns 0x00 (0000ms, 0827ms total)
T12D0 001:422 JLINK_WriteReg(MSP, 0x20001000)  returns 0x00 (0000ms, 0827ms total)
T12D0 001:422 JLINK_WriteReg(PSP, 0x20001000)  returns 0x00 (0000ms, 0827ms total)
T12D0 001:422 JLINK_WriteReg(CFBP, 0x00000000)  returns 0x00 (0000ms, 0827ms total)
T12D0 001:422 JLINK_SetBPEx(Addr = 0x20000000, Type = 0xFFFFFFF2)  returns 0x00000009 (0000ms, 0827ms total)
T12D0 001:422 JLINK_Go() (0003ms, 0830ms total)
T12D0 001:425 JLINK_IsHalted()  returns FALSE (0001ms, 0831ms total)
T12D0 001:429 JLINK_IsHalted()  returns FALSE (0001ms, 0831ms total)
T12D0 001:431 JLINK_IsHalted()  returns FALSE (0001ms, 0831ms total)
T12D0 001:433 JLINK_IsHalted()  returns FALSE (0001ms, 0831ms total)
T12D0 001:435 JLINK_IsHalted()  returns FALSE (0001ms, 0831ms total)
T12D0 001:437 JLINK_IsHalted()  returns FALSE (0001ms, 0831ms total)
T12D0 001:439 JLINK_IsHalted()  returns FALSE (0001ms, 0831ms total)
T12D0 001:441 JLINK_IsHalted()  returns FALSE (0001ms, 0831ms total)
T12D0 001:443 JLINK_IsHalted()  returns FALSE (0001ms, 0831ms total)
T12D0 001:445 JLINK_IsHalted()  returns FALSE (0001ms, 0831ms total)
T12D0 001:447 JLINK_IsHalted()  returns FALSE (0001ms, 0831ms total)
T12D0 001:449 JLINK_IsHalted()  returns FALSE (0001ms, 0831ms total)
T12D0 001:451 JLINK_IsHalted()  returns FALSE (0001ms, 0831ms total)
T12D0 001:453 JLINK_IsHalted()  returns FALSE (0001ms, 0831ms total)
T12D0 001:455 JLINK_IsHalted()  returns FALSE (0001ms, 0831ms total)
T12D0 001:457 JLINK_IsHalted() -- CPU_ReadMem(2 bytes @ 0x20000000)  returns TRUE (0010ms, 0840ms total)
T12D0 001:467 JLINK_ReadReg(R15 (PC))  returns 0x20000000 (0000ms, 0830ms total)
T12D0 001:467 JLINK_ClrBPEx(BPHandle = 0x00000009)  returns 0x00 (0000ms, 0830ms total)
T12D0 001:467 JLINK_ReadReg(R0)  returns 0x00000000 (0000ms, 0830ms total)
T12D0 001:468 JLINK_WriteMem(0x20000164, 0x0400 Bytes, ...) -- Data:  08 60 80 20 B9 49 48 61 08 61 80 00 08 61 BA 49 ... -- CPU_WriteMem(1024 bytes @ 0x20000164)  returns 0x400 (0017ms, 0847ms total)
T12D0 001:485 JLINK_WriteReg(R0, 0x08001400)  returns 0x00 (0001ms, 0848ms total)
T12D0 001:486 JLINK_WriteReg(R1, 0x00000400)  returns 0x00 (0000ms, 0848ms total)
T12D0 001:486 JLINK_WriteReg(R2, 0x20000164)  returns 0x00 (0000ms, 0848ms total)
T12D0 001:486 JLINK_WriteReg(R3, 0x00000000)  returns 0x00 (0000ms, 0848ms total)
T12D0 001:486 JLINK_WriteReg(R4, 0x00000000)  returns 0x00 (0000ms, 0848ms total)
T12D0 001:486 JLINK_WriteReg(R5, 0x00000000)  returns 0x00 (0000ms, 0848ms total)
T12D0 001:486 JLINK_WriteReg(R6, 0x00000000)  returns 0x00 (0000ms, 0848ms total)
T12D0 001:486 JLINK_WriteReg(R7, 0x00000000)  returns 0x00 (0000ms, 0848ms total)
T12D0 001:486 JLINK_WriteReg(R8, 0x00000000)  returns 0x00 (0000ms, 0848ms total)
T12D0 001:486 JLINK_WriteReg(R9, 0x20000160)  returns 0x00 (0000ms, 0848ms total)
T12D0 001:486 JLINK_WriteReg(R10, 0x00000000)  returns 0x00 (0000ms, 0848ms total)
T12D0 001:486 JLINK_WriteReg(R11, 0x00000000)  returns 0x00 (0000ms, 0848ms total)
T12D0 001:486 JLINK_WriteReg(R12, 0x00000000)  returns 0x00 (0000ms, 0848ms total)
T12D0 001:486 JLINK_WriteReg(R13 (SP), 0x20001000)  returns 0x00 (0000ms, 0848ms total)
T12D0 001:486 JLINK_WriteReg(R14, 0x20000001)  returns 0x00 (0000ms, 0848ms total)
T12D0 001:486 JLINK_WriteReg(R15 (PC), 0x200000F4)  returns 0x00 (0000ms, 0848ms total)
T12D0 001:486 JLINK_WriteReg(XPSR, 0x01000000)  returns 0x00 (0000ms, 0848ms total)
T12D0 001:486 JLINK_WriteReg(MSP, 0x20001000)  returns 0x00 (0000ms, 0848ms total)
T12D0 001:486 JLINK_WriteReg(PSP, 0x20001000)  returns 0x00 (0000ms, 0848ms total)
T12D0 001:486 JLINK_WriteReg(CFBP, 0x00000000)  returns 0x00 (0000ms, 0848ms total)
T12D0 001:486 JLINK_SetBPEx(Addr = 0x20000000, Type = 0xFFFFFFF2)  returns 0x0000000A (0000ms, 0848ms total)
T12D0 001:486 JLINK_Go() (0003ms, 0851ms total)
T12D0 001:489 JLINK_IsHalted()  returns FALSE (0001ms, 0852ms total)
T12D0 001:535 JLINK_IsHalted() -- CPU_ReadMem(2 bytes @ 0x20000000)  returns TRUE (0009ms, 0860ms total)
T12D0 001:544 JLINK_ReadReg(R15 (PC))  returns 0x20000000 (0000ms, 0851ms total)
T12D0 001:544 JLINK_ClrBPEx(BPHandle = 0x0000000A)  returns 0x00 (0000ms, 0851ms total)
T12D0 001:544 JLINK_ReadReg(R0)  returns 0x00000000 (0000ms, 0851ms total)
T12D0 001:545 JLINK_WriteMem(0x20000164, 0x0400 Bytes, ...) -- Data:  4F F4 48 70 48 80 76 E0 22 20 BE 49 08 81 20 20 ... -- CPU_WriteMem(1024 bytes @ 0x20000164)  returns 0x400 (0017ms, 0868ms total)
T12D0 001:562 JLINK_WriteReg(R0, 0x08001800)  returns 0x00 (0000ms, 0868ms total)
T12D0 001:562 JLINK_WriteReg(R1, 0x00000400)  returns 0x00 (0000ms, 0868ms total)
T12D0 001:562 JLINK_WriteReg(R2, 0x20000164)  returns 0x00 (0000ms, 0868ms total)
T12D0 001:562 JLINK_WriteReg(R3, 0x00000000)  returns 0x00 (0000ms, 0868ms total)
T12D0 001:562 JLINK_WriteReg(R4, 0x00000000)  returns 0x00 (0000ms, 0868ms total)
T12D0 001:562 JLINK_WriteReg(R5, 0x00000000)  returns 0x00 (0000ms, 0868ms total)
T12D0 001:562 JLINK_WriteReg(R6, 0x00000000)  returns 0x00 (0000ms, 0868ms total)
T12D0 001:562 JLINK_WriteReg(R7, 0x00000000)  returns 0x00 (0000ms, 0868ms total)
T12D0 001:562 JLINK_WriteReg(R8, 0x00000000)  returns 0x00 (0001ms, 0869ms total)
T12D0 001:563 JLINK_WriteReg(R9, 0x20000160)  returns 0x00 (0000ms, 0869ms total)
T12D0 001:563 JLINK_WriteReg(R10, 0x00000000)  returns 0x00 (0000ms, 0869ms total)
T12D0 001:563 JLINK_WriteReg(R11, 0x00000000)  returns 0x00 (0000ms, 0869ms total)
T12D0 001:563 JLINK_WriteReg(R12, 0x00000000)  returns 0x00 (0000ms, 0869ms total)
T12D0 001:563 JLINK_WriteReg(R13 (SP), 0x20001000)  returns 0x00 (0000ms, 0869ms total)
T12D0 001:563 JLINK_WriteReg(R14, 0x20000001)  returns 0x00 (0000ms, 0869ms total)
T12D0 001:563 JLINK_WriteReg(R15 (PC), 0x200000F4)  returns 0x00 (0000ms, 0869ms total)
T12D0 001:563 JLINK_WriteReg(XPSR, 0x01000000)  returns 0x00 (0000ms, 0869ms total)
T12D0 001:563 JLINK_WriteReg(MSP, 0x20001000)  returns 0x00 (0000ms, 0869ms total)
T12D0 001:563 JLINK_WriteReg(PSP, 0x20001000)  returns 0x00 (0000ms, 0869ms total)
T12D0 001:563 JLINK_WriteReg(CFBP, 0x00000000)  returns 0x00 (0000ms, 0869ms total)
T12D0 001:563 JLINK_SetBPEx(Addr = 0x20000000, Type = 0xFFFFFFF2)  returns 0x0000000B (0000ms, 0869ms total)
T12D0 001:563 JLINK_Go() (0003ms, 0872ms total)
T12D0 001:566 JLINK_IsHalted()  returns FALSE (0001ms, 0873ms total)
T12D0 001:568 JLINK_IsHalted()  returns FALSE (0001ms, 0873ms total)
T12D0 001:570 JLINK_IsHalted()  returns FALSE (0001ms, 0873ms total)
T12D0 001:572 JLINK_IsHalted()  returns FALSE (0001ms, 0873ms total)
T12D0 001:574 JLINK_IsHalted()  returns FALSE (0001ms, 0873ms total)
T12D0 001:576 JLINK_IsHalted()  returns FALSE (0001ms, 0873ms total)
T12D0 001:623 JLINK_IsHalted() -- CPU_ReadMem(2 bytes @ 0x20000000)  returns TRUE (0010ms, 0882ms total)
T12D0 001:633 JLINK_ReadReg(R15 (PC))  returns 0x20000000 (0000ms, 0872ms total)
T12D0 001:633 JLINK_ClrBPEx(BPHandle = 0x0000000B)  returns 0x00 (0000ms, 0872ms total)
T12D0 001:633 JLINK_ReadReg(R0)  returns 0x00000000 (0000ms, 0872ms total)
T12D0 001:633 JLINK_WriteMem(0x20000164, 0x0400 Bytes, ...) -- Data:  4F F4 80 70 C0 49 08 61 40 00 48 61 F0 B2 BF 49 ... -- CPU_WriteMem(1024 bytes @ 0x20000164)  returns 0x400 (0017ms, 0889ms total)
T12D0 001:651 JLINK_WriteReg(R0, 0x08001C00)  returns 0x00 (0000ms, 0889ms total)
T12D0 001:651 JLINK_WriteReg(R1, 0x00000400)  returns 0x00 (0000ms, 0889ms total)
T12D0 001:651 JLINK_WriteReg(R2, 0x20000164)  returns 0x00 (0001ms, 0890ms total)
T12D0 001:652 JLINK_WriteReg(R3, 0x00000000)  returns 0x00 (0000ms, 0890ms total)
T12D0 001:652 JLINK_WriteReg(R4, 0x00000000)  returns 0x00 (0000ms, 0890ms total)
T12D0 001:652 JLINK_WriteReg(R5, 0x00000000)  returns 0x00 (0000ms, 0890ms total)
T12D0 001:652 JLINK_WriteReg(R6, 0x00000000)  returns 0x00 (0000ms, 0890ms total)
T12D0 001:652 JLINK_WriteReg(R7, 0x00000000)  returns 0x00 (0000ms, 0890ms total)
T12D0 001:652 JLINK_WriteReg(R8, 0x00000000)  returns 0x00 (0000ms, 0890ms total)
T12D0 001:652 JLINK_WriteReg(R9, 0x20000160)  returns 0x00 (0000ms, 0890ms total)
T12D0 001:652 JLINK_WriteReg(R10, 0x00000000)  returns 0x00 (0000ms, 0890ms total)
T12D0 001:652 JLINK_WriteReg(R11, 0x00000000)  returns 0x00 (0000ms, 0890ms total)
T12D0 001:652 JLINK_WriteReg(R12, 0x00000000)  returns 0x00 (0000ms, 0890ms total)
T12D0 001:652 JLINK_WriteReg(R13 (SP), 0x20001000)  returns 0x00 (0000ms, 0890ms total)
T12D0 001:652 JLINK_WriteReg(R14, 0x20000001)  returns 0x00 (0000ms, 0890ms total)
T12D0 001:652 JLINK_WriteReg(R15 (PC), 0x200000F4)  returns 0x00 (0000ms, 0890ms total)
T12D0 001:652 JLINK_WriteReg(XPSR, 0x01000000)  returns 0x00 (0000ms, 0890ms total)
T12D0 001:652 JLINK_WriteReg(MSP, 0x20001000)  returns 0x00 (0000ms, 0890ms total)
T12D0 001:652 JLINK_WriteReg(PSP, 0x20001000)  returns 0x00 (0000ms, 0890ms total)
T12D0 001:652 JLINK_WriteReg(CFBP, 0x00000000)  returns 0x00 (0000ms, 0890ms total)
T12D0 001:652 JLINK_SetBPEx(Addr = 0x20000000, Type = 0xFFFFFFF2)  returns 0x0000000C (0000ms, 0890ms total)
T12D0 001:652 JLINK_Go() (0003ms, 0893ms total)
T12D0 001:655 JLINK_IsHalted()  returns FALSE (0001ms, 0894ms total)
T12D0 001:661 JLINK_IsHalted()  returns FALSE (0001ms, 0894ms total)
T12D0 001:663 JLINK_IsHalted()  returns FALSE (0001ms, 0894ms total)
T12D0 001:665 JLINK_IsHalted()  returns FALSE (0001ms, 0894ms total)
T12D0 001:667 JLINK_IsHalted()  returns FALSE (0001ms, 0894ms total)
T12D0 001:669 JLINK_IsHalted()  returns FALSE (0001ms, 0894ms total)
T12D0 001:671 JLINK_IsHalted()  returns FALSE (0001ms, 0894ms total)
T12D0 001:673 JLINK_IsHalted()  returns FALSE (0001ms, 0894ms total)
T12D0 001:675 JLINK_IsHalted()  returns FALSE (0001ms, 0894ms total)
T12D0 001:677 JLINK_IsHalted()  returns FALSE (0001ms, 0894ms total)
T12D0 001:679 JLINK_IsHalted()  returns FALSE (0001ms, 0894ms total)
T12D0 001:681 JLINK_IsHalted()  returns FALSE (0001ms, 0894ms total)
T12D0 001:683 JLINK_IsHalted()  returns FALSE (0001ms, 0894ms total)
T12D0 001:685 JLINK_IsHalted()  returns FALSE (0001ms, 0894ms total)
T12D0 001:687 JLINK_IsHalted() -- CPU_ReadMem(2 bytes @ 0x20000000)  returns TRUE (0010ms, 0903ms total)
T12D0 001:697 JLINK_ReadReg(R15 (PC))  returns 0x20000000 (0000ms, 0893ms total)
T12D0 001:697 JLINK_ClrBPEx(BPHandle = 0x0000000C)  returns 0x00 (0000ms, 0893ms total)
T12D0 001:697 JLINK_ReadReg(R0)  returns 0x00000000 (0000ms, 0893ms total)
T12D0 001:698 JLINK_WriteMem(0x20000164, 0x0400 Bytes, ...) -- Data:  FE F7 80 FB 81 20 FE F7 7D FB E8 20 FE F7 6C FB ... -- CPU_WriteMem(1024 bytes @ 0x20000164)  returns 0x400 (0018ms, 0911ms total)
T12D0 001:716 JLINK_WriteReg(R0, 0x08002000)  returns 0x00 (0000ms, 0911ms total)
T12D0 001:716 JLINK_WriteReg(R1, 0x00000400)  returns 0x00 (0000ms, 0911ms total)
T12D0 001:716 JLINK_WriteReg(R2, 0x20000164)  returns 0x00 (0000ms, 0911ms total)
T12D0 001:716 JLINK_WriteReg(R3, 0x00000000)  returns 0x00 (0000ms, 0911ms total)
T12D0 001:716 JLINK_WriteReg(R4, 0x00000000)  returns 0x00 (0000ms, 0911ms total)
T12D0 001:716 JLINK_WriteReg(R5, 0x00000000)  returns 0x00 (0000ms, 0911ms total)
T12D0 001:716 JLINK_WriteReg(R6, 0x00000000)  returns 0x00 (0000ms, 0911ms total)
T12D0 001:716 JLINK_WriteReg(R7, 0x00000000)  returns 0x00 (0000ms, 0911ms total)
T12D0 001:716 JLINK_WriteReg(R8, 0x00000000)  returns 0x00 (0000ms, 0911ms total)
T12D0 001:716 JLINK_WriteReg(R9, 0x20000160)  returns 0x00 (0000ms, 0911ms total)
T12D0 001:716 JLINK_WriteReg(R10, 0x00000000)  returns 0x00 (0000ms, 0911ms total)
T12D0 001:716 JLINK_WriteReg(R11, 0x00000000)  returns 0x00 (0000ms, 0911ms total)
T12D0 001:716 JLINK_WriteReg(R12, 0x00000000)  returns 0x00 (0000ms, 0911ms total)
T12D0 001:716 JLINK_WriteReg(R13 (SP), 0x20001000)  returns 0x00 (0000ms, 0911ms total)
T12D0 001:716 JLINK_WriteReg(R14, 0x20000001)  returns 0x00 (0000ms, 0911ms total)
T12D0 001:716 JLINK_WriteReg(R15 (PC), 0x200000F4)  returns 0x00 (0000ms, 0911ms total)
T12D0 001:716 JLINK_WriteReg(XPSR, 0x01000000)  returns 0x00 (0000ms, 0911ms total)
T12D0 001:716 JLINK_WriteReg(MSP, 0x20001000)  returns 0x00 (0000ms, 0911ms total)
T12D0 001:716 JLINK_WriteReg(PSP, 0x20001000)  returns 0x00 (0000ms, 0911ms total)
T12D0 001:716 JLINK_WriteReg(CFBP, 0x00000000)  returns 0x00 (0000ms, 0911ms total)
T12D0 001:716 JLINK_SetBPEx(Addr = 0x20000000, Type = 0xFFFFFFF2)  returns 0x0000000D (0001ms, 0912ms total)
T12D0 001:717 JLINK_Go() (0002ms, 0914ms total)
T12D0 001:719 JLINK_IsHalted()  returns FALSE (0001ms, 0915ms total)
T12D0 001:759 JLINK_IsHalted() -- CPU_ReadMem(2 bytes @ 0x20000000)  returns TRUE (0010ms, 0924ms total)
T12D0 001:769 JLINK_ReadReg(R15 (PC))  returns 0x20000000 (0000ms, 0914ms total)
T12D0 001:769 JLINK_ClrBPEx(BPHandle = 0x0000000D)  returns 0x00 (0000ms, 0914ms total)
T12D0 001:769 JLINK_ReadReg(R0)  returns 0x00000000 (0000ms, 0914ms total)
T12D0 001:769 JLINK_WriteMem(0x20000164, 0x0400 Bytes, ...) -- Data:  05 DD 02 98 00 1B 02 90 00 98 40 44 00 90 0B F1 ... -- CPU_WriteMem(1024 bytes @ 0x20000164)  returns 0x400 (0018ms, 0932ms total)
T12D0 001:787 JLINK_WriteReg(R0, 0x08002400)  returns 0x00 (0000ms, 0932ms total)
T12D0 001:787 JLINK_WriteReg(R1, 0x00000400)  returns 0x00 (0000ms, 0932ms total)
T12D0 001:787 JLINK_WriteReg(R2, 0x20000164)  returns 0x00 (0000ms, 0932ms total)
T12D0 001:787 JLINK_WriteReg(R3, 0x00000000)  returns 0x00 (0000ms, 0932ms total)
T12D0 001:787 JLINK_WriteReg(R4, 0x00000000)  returns 0x00 (0000ms, 0932ms total)
T12D0 001:787 JLINK_WriteReg(R5, 0x00000000)  returns 0x00 (0000ms, 0932ms total)
T12D0 001:787 JLINK_WriteReg(R6, 0x00000000)  returns 0x00 (0000ms, 0932ms total)
T12D0 001:787 JLINK_WriteReg(R7, 0x00000000)  returns 0x00 (0000ms, 0932ms total)
T12D0 001:787 JLINK_WriteReg(R8, 0x00000000)  returns 0x00 (0000ms, 0932ms total)
T12D0 001:787 JLINK_WriteReg(R9, 0x20000160)  returns 0x00 (0000ms, 0932ms total)
T12D0 001:787 JLINK_WriteReg(R10, 0x00000000)  returns 0x00 (0000ms, 0932ms total)
T12D0 001:787 JLINK_WriteReg(R11, 0x00000000)  returns 0x00 (0000ms, 0932ms total)
T12D0 001:787 JLINK_WriteReg(R12, 0x00000000)  returns 0x00 (0000ms, 0932ms total)
T12D0 001:787 JLINK_WriteReg(R13 (SP), 0x20001000)  returns 0x00 (0000ms, 0932ms total)
T12D0 001:787 JLINK_WriteReg(R14, 0x20000001)  returns 0x00 (0000ms, 0932ms total)
T12D0 001:787 JLINK_WriteReg(R15 (PC), 0x200000F4)  returns 0x00 (0000ms, 0932ms total)
T12D0 001:787 JLINK_WriteReg(XPSR, 0x01000000)  returns 0x00 (0000ms, 0932ms total)
T12D0 001:787 JLINK_WriteReg(MSP, 0x20001000)  returns 0x00 (0000ms, 0932ms total)
T12D0 001:787 JLINK_WriteReg(PSP, 0x20001000)  returns 0x00 (0000ms, 0932ms total)
T12D0 001:787 JLINK_WriteReg(CFBP, 0x00000000)  returns 0x00 (0000ms, 0932ms total)
T12D0 001:787 JLINK_SetBPEx(Addr = 0x20000000, Type = 0xFFFFFFF2)  returns 0x0000000E (0000ms, 0932ms total)
T12D0 001:787 JLINK_Go() (0003ms, 0935ms total)
T12D0 001:790 JLINK_IsHalted()  returns FALSE (0001ms, 0936ms total)
T12D0 001:793 JLINK_IsHalted()  returns FALSE (0001ms, 0936ms total)
T12D0 001:809 JLINK_IsHalted()  returns FALSE (0001ms, 0936ms total)
T12D0 001:811 JLINK_IsHalted()  returns FALSE (0001ms, 0936ms total)
T12D0 001:813 JLINK_IsHalted()  returns FALSE (0001ms, 0936ms total)
T12D0 001:815 JLINK_IsHalted()  returns FALSE (0001ms, 0936ms total)
T12D0 001:817 JLINK_IsHalted()  returns FALSE (0001ms, 0936ms total)
T12D0 001:819 JLINK_IsHalted()  returns FALSE (0001ms, 0936ms total)
T12D0 001:821 JLINK_IsHalted() -- CPU_ReadMem(2 bytes @ 0x20000000)  returns TRUE (0009ms, 0944ms total)
T12D0 001:831 JLINK_ReadReg(R15 (PC))  returns 0x20000000 (0000ms, 0935ms total)
T12D0 001:831 JLINK_ClrBPEx(BPHandle = 0x0000000E)  returns 0x00 (0000ms, 0935ms total)
T12D0 001:831 JLINK_ReadReg(R0)  returns 0x00000000 (0000ms, 0935ms total)
T12D0 001:831 JLINK_WriteMem(0x20000164, 0x0400 Bytes, ...) -- Data:  4F F0 00 03 01 EB 1C 6E BE F9 02 50 BE F9 00 40 ... -- CPU_WriteMem(1024 bytes @ 0x20000164)  returns 0x400 (0017ms, 0952ms total)
T12D0 001:848 JLINK_WriteReg(R0, 0x08002800)  returns 0x00 (0000ms, 0952ms total)
T12D0 001:848 JLINK_WriteReg(R1, 0x00000400)  returns 0x00 (0000ms, 0952ms total)
T12D0 001:848 JLINK_WriteReg(R2, 0x20000164)  returns 0x00 (0000ms, 0952ms total)
T12D0 001:848 JLINK_WriteReg(R3, 0x00000000)  returns 0x00 (0000ms, 0952ms total)
T12D0 001:848 JLINK_WriteReg(R4, 0x00000000)  returns 0x00 (0000ms, 0952ms total)
T12D0 001:848 JLINK_WriteReg(R5, 0x00000000)  returns 0x00 (0000ms, 0952ms total)
T12D0 001:848 JLINK_WriteReg(R6, 0x00000000)  returns 0x00 (0000ms, 0952ms total)
T12D0 001:848 JLINK_WriteReg(R7, 0x00000000)  returns 0x00 (0000ms, 0952ms total)
T12D0 001:848 JLINK_WriteReg(R8, 0x00000000)  returns 0x00 (0000ms, 0952ms total)
T12D0 001:848 JLINK_WriteReg(R9, 0x20000160)  returns 0x00 (0000ms, 0952ms total)
T12D0 001:849 JLINK_WriteReg(R10, 0x00000000)  returns 0x00 (0000ms, 0953ms total)
T12D0 001:849 JLINK_WriteReg(R11, 0x00000000)  returns 0x00 (0000ms, 0953ms total)
T12D0 001:849 JLINK_WriteReg(R12, 0x00000000)  returns 0x00 (0000ms, 0953ms total)
T12D0 001:849 JLINK_WriteReg(R13 (SP), 0x20001000)  returns 0x00 (0000ms, 0953ms total)
T12D0 001:849 JLINK_WriteReg(R14, 0x20000001)  returns 0x00 (0000ms, 0953ms total)
T12D0 001:849 JLINK_WriteReg(R15 (PC), 0x200000F4)  returns 0x00 (0000ms, 0953ms total)
T12D0 001:849 JLINK_WriteReg(XPSR, 0x01000000)  returns 0x00 (0000ms, 0953ms total)
T12D0 001:849 JLINK_WriteReg(MSP, 0x20001000)  returns 0x00 (0000ms, 0953ms total)
T12D0 001:849 JLINK_WriteReg(PSP, 0x20001000)  returns 0x00 (0000ms, 0953ms total)
T12D0 001:849 JLINK_WriteReg(CFBP, 0x00000000)  returns 0x00 (0000ms, 0953ms total)
T12D0 001:849 JLINK_SetBPEx(Addr = 0x20000000, Type = 0xFFFFFFF2)  returns 0x0000000F (0000ms, 0953ms total)
T12D0 001:849 JLINK_Go() (0002ms, 0955ms total)
T12D0 001:851 JLINK_IsHalted()  returns FALSE (0001ms, 0956ms total)
T12D0 001:855 JLINK_IsHalted()  returns FALSE (0001ms, 0956ms total)
T12D0 001:857 JLINK_IsHalted()  returns FALSE (0001ms, 0956ms total)
T12D0 001:859 JLINK_IsHalted()  returns FALSE (0001ms, 0956ms total)
T12D0 001:861 JLINK_IsHalted()  returns FALSE (0001ms, 0956ms total)
T12D0 001:863 JLINK_IsHalted()  returns FALSE (0001ms, 0956ms total)
T12D0 001:865 JLINK_IsHalted()  returns FALSE (0001ms, 0956ms total)
T12D0 001:867 JLINK_IsHalted()  returns FALSE (0001ms, 0956ms total)
T12D0 001:869 JLINK_IsHalted()  returns FALSE (0001ms, 0956ms total)
T12D0 001:871 JLINK_IsHalted()  returns FALSE (0001ms, 0956ms total)
T12D0 001:873 JLINK_IsHalted()  returns FALSE (0001ms, 0956ms total)
T12D0 001:875 JLINK_IsHalted()  returns FALSE (0001ms, 0956ms total)
T12D0 001:877 JLINK_IsHalted()  returns FALSE (0001ms, 0956ms total)
T12D0 001:879 JLINK_IsHalted()  returns FALSE (0001ms, 0956ms total)
T12D0 001:885 JLINK_IsHalted() -- CPU_ReadMem(2 bytes @ 0x20000000)  returns TRUE (0011ms, 0966ms total)
T12D0 001:896 JLINK_ReadReg(R15 (PC))  returns 0x20000000 (0000ms, 0955ms total)
T12D0 001:896 JLINK_ClrBPEx(BPHandle = 0x0000000F)  returns 0x00 (0000ms, 0955ms total)
T12D0 001:896 JLINK_ReadReg(R0)  returns 0x00000000 (0000ms, 0955ms total)
T12D0 001:897 JLINK_WriteMem(0x20000164, 0x0400 Bytes, ...) -- Data:  21 3B 40 B1 AF 3D 79 0F DA 24 4D D9 42 3C 2E AE ... -- CPU_WriteMem(1024 bytes @ 0x20000164)  returns 0x400 (0017ms, 0972ms total)
T12D0 001:914 JLINK_WriteReg(R0, 0x08002C00)  returns 0x00 (0000ms, 0972ms total)
T12D0 001:914 JLINK_WriteReg(R1, 0x00000400)  returns 0x00 (0000ms, 0972ms total)
T12D0 001:914 JLINK_WriteReg(R2, 0x20000164)  returns 0x00 (0000ms, 0972ms total)
T12D0 001:914 JLINK_WriteReg(R3, 0x00000000)  returns 0x00 (0000ms, 0972ms total)
T12D0 001:915 JLINK_WriteReg(R4, 0x00000000)  returns 0x00 (0000ms, 0973ms total)
T12D0 001:915 JLINK_WriteReg(R5, 0x00000000)  returns 0x00 (0000ms, 0973ms total)
T12D0 001:915 JLINK_WriteReg(R6, 0x00000000)  returns 0x00 (0000ms, 0973ms total)
T12D0 001:915 JLINK_WriteReg(R7, 0x00000000)  returns 0x00 (0000ms, 0973ms total)
T12D0 001:915 JLINK_WriteReg(R8, 0x00000000)  returns 0x00 (0000ms, 0973ms total)
T12D0 001:915 JLINK_WriteReg(R9, 0x20000160)  returns 0x00 (0000ms, 0973ms total)
T12D0 001:915 JLINK_WriteReg(R10, 0x00000000)  returns 0x00 (0000ms, 0973ms total)
T12D0 001:915 JLINK_WriteReg(R11, 0x00000000)  returns 0x00 (0000ms, 0973ms total)
T12D0 001:915 JLINK_WriteReg(R12, 0x00000000)  returns 0x00 (0000ms, 0973ms total)
T12D0 001:915 JLINK_WriteReg(R13 (SP), 0x20001000)  returns 0x00 (0000ms, 0973ms total)
T12D0 001:915 JLINK_WriteReg(R14, 0x20000001)  returns 0x00 (0000ms, 0973ms total)
T12D0 001:915 JLINK_WriteReg(R15 (PC), 0x200000F4)  returns 0x00 (0000ms, 0973ms total)
T12D0 001:915 JLINK_WriteReg(XPSR, 0x01000000)  returns 0x00 (0000ms, 0973ms total)
T12D0 001:915 JLINK_WriteReg(MSP, 0x20001000)  returns 0x00 (0000ms, 0973ms total)
T12D0 001:915 JLINK_WriteReg(PSP, 0x20001000)  returns 0x00 (0000ms, 0973ms total)
T12D0 001:915 JLINK_WriteReg(CFBP, 0x00000000)  returns 0x00 (0000ms, 0973ms total)
T12D0 001:915 JLINK_SetBPEx(Addr = 0x20000000, Type = 0xFFFFFFF2)  returns 0x00000010 (0000ms, 0973ms total)
T12D0 001:915 JLINK_Go() (0003ms, 0976ms total)
T12D0 001:918 JLINK_IsHalted()  returns FALSE (0001ms, 0977ms total)
T12D0 001:966 JLINK_IsHalted() -- CPU_ReadMem(2 bytes @ 0x20000000)  returns TRUE (0010ms, 0986ms total)
T12D0 001:976 JLINK_ReadReg(R15 (PC))  returns 0x20000000 (0000ms, 0976ms total)
T12D0 001:976 JLINK_ClrBPEx(BPHandle = 0x00000010)  returns 0x00 (0000ms, 0976ms total)
T12D0 001:976 JLINK_ReadReg(R0)  returns 0x00000000 (0000ms, 0976ms total)
